Circuit: * G:\TraDiHab\03_Electrical\04_Temp_sensor\Simulation_LM324.asc

Direct Newton iteration for .op point succeeded.
Semiconductor Device Operating Points:
                        --- Diodes ---
Name:    d:u1:p      d:u1:ln     d:u1:lp     d:u1:e      d:u1:c
Model:    u1:dx       u1:dx       u1:dx       u1:dx       u1:dx
Id:     -5.00e-12   -4.00e-11   -4.00e-11    4.04e-08   -2.76e-12
Vd:     -5.00e+00   -4.00e+01   -4.00e+01    4.59e-01   -2.76e+00
Req:     1.00e+12    1.00e+12    1.00e+12    6.40e+05    1.00e+12
CAP:     0.00e+00    0.00e+00    0.00e+00    0.00e+00    0.00e+00

                        --- Bipolar Transistors ---
Name:     q:u1:2      q:u1:1
Model:     u1:qx       u1:qx
Ib:      -2.03e-08   -2.00e-08
Ic:      -5.08e-06   -5.01e-06
Vbe:     -5.84e-01   -5.83e-01
Vbc:      6.38e-02    6.48e-02
Vce:     -6.48e-01   -6.48e-01
BetaDC:   2.50e+02    2.50e+02
Gm:       1.96e-04    1.94e-04
Rpi:      1.27e+06    1.29e+06
Rx:       0.00e+00    0.00e+00
Ro:       3.80e+14    3.96e+14
Cbe:      0.00e+00    0.00e+00
Cbc:      0.00e+00    0.00e+00
Cjs:      0.00e+00    0.00e+00
BetaAC:   2.50e+02    2.50e+02
Cbx:      0.00e+00    0.00e+00
Ft:       0.00e+00    0.00e+00



Date: Mon Jan 20 09:24:17 2020
Total elapsed time: 0.448 seconds.

tnom = 27
temp = 27
method = trap
totiter = 13
traniter = 0
tranpoints = 0
accept = 0
rejected = 0
matrix size = 28
fillins = 37
solver = Normal
Matrix Compiler1: 3.13 KB object code size
Matrix Compiler2: 2.92 KB object code size
